
**** 11/25/20 15:58:47 *********** Evaluation PSpice (Nov 1999) **************

 * F:\Study\2nd year\Analog electronic circuit\lab\LAB 4\pa.sch


 ****     CIRCUIT DESCRIPTION


******************************************************************************




* Schematics Version 9.1 - Web Update 1
* Wed Nov 25 15:58:43 2020



** Analysis setup **
.tran 0ns 2ms


* From [PSPICE NETLIST] section of pspiceev.ini:
.lib "nom.lib"

.INC "pa.net"

**** INCLUDING pa.net ****
* Schematics Netlist *



Q_Q2         $N_0002 $N_0001 $N_0003 Q2N2222
Q_Q1         $N_0005 $N_0004 $N_0002 Q2N2222
R_R1         $N_0002 0 {1k*0.5+.001}
V_V1         $N_0004 0 DC 0V AC 5 
R_R2         0 $N_0001  2.26K  
V_V2         $N_0005 0 12
V_V3         0 $N_0003 12
D_D2         $N_0001 $N_0003 D1N4002 

**** RESUMING pa.cir ****
.INC "pa.als"



**** INCLUDING pa.als ****
* Schematics Aliases *

.ALIASES
Q_Q2            Q2(c=$N_0002 b=$N_0001 e=$N_0003 )
Q_Q1            Q1(c=$N_0005 b=$N_0004 e=$N_0002 )
R_R1            R1(1=$N_0002 2=0 )
V_V1            V1(+=$N_0004 -=0 )
R_R2            R2(1=0 2=$N_0001 )
V_V2            V2(+=$N_0005 -=0 )
V_V3            V3(+=0 -=$N_0003 )
D_D2            D2(1=$N_0001 2=$N_0003 )
.ENDALIASES


**** RESUMING pa.cir ****
.probe


.END

**** 11/25/20 15:58:47 *********** Evaluation PSpice (Nov 1999) **************

 * F:\Study\2nd year\Analog electronic circuit\lab\LAB 4\pa.sch


 ****     Diode MODEL PARAMETERS


******************************************************************************




               D1N4002         
          IS   14.110000E-09 
           N    1.984        
         ISR  100.000000E-12 
         IKF   94.81         
          BV  100.1          
         IBV   10            
          RS     .03389      
          TT    4.761000E-06 
         CJO   51.170000E-12 
          VJ     .3905       
           M     .2762       


**** 11/25/20 15:58:47 *********** Evaluation PSpice (Nov 1999) **************

 * F:\Study\2nd year\Analog electronic circuit\lab\LAB 4\pa.sch


 ****     BJT MODEL PARAMETERS


******************************************************************************




               Q2N2222         
               NPN             
          IS   14.340000E-15 
          BF  255.9          
          NF    1            
         VAF   74.03         
         IKF     .2847       
         ISE   14.340000E-15 
          NE    1.307        
          BR    6.092        
          NR    1            
          RB   10            
          RC    1            
         CJE   22.010000E-12 
         MJE     .377        
         CJC    7.306000E-12 
         MJC     .3416       
          TF  411.100000E-12 
         XTF    3            
         VTF    1.7          
         ITF     .6          
          TR   46.910000E-09 
         XTB    1.5          
          CN    2.42         
           D     .87         


**** 11/25/20 15:58:47 *********** Evaluation PSpice (Nov 1999) **************

 * F:\Study\2nd year\Analog electronic circuit\lab\LAB 4\pa.sch


 ****     INITIAL TRANSIENT SOLUTION       TEMPERATURE =   27.000 DEG C


******************************************************************************



 NODE   VOLTAGE     NODE   VOLTAGE     NODE   VOLTAGE     NODE   VOLTAGE


($N_0001)  -11.3440                   ($N_0002)    -.6197                       

($N_0003)  -12.0000                   ($N_0004)    0.0000                       

($N_0005)   12.0000                   




    VOLTAGE SOURCE CURRENTS
    NAME         CURRENT

    V_V1        -2.731E-06
    V_V2        -4.223E-04
    V_V3        -6.684E-03

    TOTAL POWER DISSIPATION   8.53E-02  WATTS



          JOB CONCLUDED

          TOTAL JOB TIME            0.00
