
**** 11/25/20 22:30:28 *********** Evaluation PSpice (Nov 1999) **************

 * F:\Study\2nd year\Analog electronic circuit\lab\LAB 4\pa3.sch


 ****     CIRCUIT DESCRIPTION


******************************************************************************




* Schematics Version 9.1 - Web Update 1
* Wed Nov 25 22:16:53 2020



** Analysis setup **
.tran 0ns 2ms


* From [PSPICE NETLIST] section of pspiceev.ini:
.lib "nom.lib"

.INC "pa3.net"

**** INCLUDING pa3.net ****
* Schematics Netlist *



Q_Q2         $N_0002 $N_0001 $N_0003 Q2N2222
V_V3         0 $N_0003 12
R_R1         $N_0003 $N_0002  4  
R_R2         0 $N_0004  680  
V_V1         $N_0001 $N_0003  
+SIN 0 5 1000 0 0 0
V_V2         $N_0005 0 12
Q_Q4         $N_0004 $N_0004 $N_0005 Q2N2907A
Q_Q7         $N_0002 $N_0004 $N_0005 Q2N2907A

**** RESUMING pa3.cir ****
.INC "pa3.als"



**** INCLUDING pa3.als ****
* Schematics Aliases *

.ALIASES
Q_Q2            Q2(c=$N_0002 b=$N_0001 e=$N_0003 )
V_V3            V3(+=0 -=$N_0003 )
R_R1            R1(1=$N_0003 2=$N_0002 )
R_R2            R2(1=0 2=$N_0004 )
V_V1            V1(+=$N_0001 -=$N_0003 )
V_V2            V2(+=$N_0005 -=0 )
Q_Q4            Q4(c=$N_0004 b=$N_0004 e=$N_0005 )
Q_Q7            Q7(c=$N_0002 b=$N_0004 e=$N_0005 )
.ENDALIASES


**** RESUMING pa3.cir ****
.probe


.END

**** 11/25/20 22:30:28 *********** Evaluation PSpice (Nov 1999) **************

 * F:\Study\2nd year\Analog electronic circuit\lab\LAB 4\pa3.sch


 ****     BJT MODEL PARAMETERS


******************************************************************************




               Q2N2222         Q2N2907A        
               NPN             PNP             
          IS   14.340000E-15  650.600000E-18 
          BF  255.9           231.7          
          NF    1               1            
         VAF   74.03          115.7          
         IKF     .2847          1.079        
         ISE   14.340000E-15   54.810000E-15 
          NE    1.307           1.829        
          BR    6.092           3.563        
          NR    1               1            
          RB   10              10            
          RC    1                .715        
         CJE   22.010000E-12   19.820000E-12 
         MJE     .377            .3357       
         CJC    7.306000E-12   14.760000E-12 
         MJC     .3416           .5383       
          TF  411.100000E-12  603.700000E-12 
         XTF    3               1.7          
         VTF    1.7             5            
         ITF     .6              .65         
          TR   46.910000E-09  111.300000E-09 
         XTB    1.5             1.5          
          CN    2.42            2.2          
           D     .87             .52         


**** 11/25/20 22:30:28 *********** Evaluation PSpice (Nov 1999) **************

 * F:\Study\2nd year\Analog electronic circuit\lab\LAB 4\pa3.sch


 ****     INITIAL TRANSIENT SOLUTION       TEMPERATURE =   27.000 DEG C


******************************************************************************



 NODE   VOLTAGE     NODE   VOLTAGE     NODE   VOLTAGE     NODE   VOLTAGE


($N_0001)  -12.0000                   ($N_0002)  -11.9220                       

($N_0003)  -12.0000                   ($N_0004)   11.2010                       

($N_0005)   12.0000                   




    VOLTAGE SOURCE CURRENTS
    NAME         CURRENT

    V_V3        -1.959E-02
    V_V1         1.532E-14
    V_V2        -3.606E-02

    TOTAL POWER DISSIPATION   6.68E-01  WATTS



          JOB CONCLUDED

          TOTAL JOB TIME             .02
