
**** 03/21/21 19:27:33 *********** Evaluation PSpice (Nov 1999) **************

 * F:\Study\2nd year\Analog electronic circuit\New folder\lowpass.sch


 ****     CIRCUIT DESCRIPTION


******************************************************************************




* Schematics Version 9.1 - Web Update 1
* Sun Mar 21 19:27:28 2021



** Analysis setup **
.ac LIN 101 10 10.00K


* From [PSPICE NETLIST] section of pspiceev.ini:
.lib "nom.lib"

.INC "lowpass.net"

**** INCLUDING lowpass.net ****
* Schematics Netlist *



R_R3         $N_0002 $N_0001  1k  
X_U1         $N_0003 $N_0002 $N_0004 $N_0005 $N_0001 uA741
C_C2         0 $N_0003  0.01u  
R_R1         $N_0008 $N_0003  15.9k  
R_R2         $N_0009 $N_0008  15.9k  
C_C1         $N_0001 $N_0008  0.01u  
V_V2         $N_0004 0 12
V_V3         0 $N_0005 12
R_R4         0 $N_0002  1k  
V_V4         $N_0009 0 DC 0V AC 2V 

**** RESUMING lowpass.cir ****
.INC "lowpass.als"



**** INCLUDING lowpass.als ****
* Schematics Aliases *

.ALIASES
R_R3            R3(1=$N_0002 2=$N_0001 )
X_U1            U1(+=$N_0003 -=$N_0002 V+=$N_0004 V-=$N_0005 OUT=$N_0001 )
C_C2            C2(1=0 2=$N_0003 )
R_R1            R1(1=$N_0008 2=$N_0003 )
R_R2            R2(1=$N_0009 2=$N_0008 )
C_C1            C1(1=$N_0001 2=$N_0008 )
V_V2            V2(+=$N_0004 -=0 )
V_V3            V3(+=0 -=$N_0005 )
R_R4            R4(1=0 2=$N_0002 )
V_V4            V4(+=$N_0009 -=0 )
.ENDALIASES


**** RESUMING lowpass.cir ****
.probe


.END

**** 03/21/21 19:27:33 *********** Evaluation PSpice (Nov 1999) **************

 * F:\Study\2nd year\Analog electronic circuit\New folder\lowpass.sch


 ****     Diode MODEL PARAMETERS


******************************************************************************




               X_U1.dx         
          IS  800.000000E-18 
          RS    1            


**** 03/21/21 19:27:33 *********** Evaluation PSpice (Nov 1999) **************

 * F:\Study\2nd year\Analog electronic circuit\New folder\lowpass.sch


 ****     BJT MODEL PARAMETERS


******************************************************************************




               X_U1.qx         
               NPN             
          IS  800.000000E-18 
          BF   93.75         
          NF    1            
          BR    1            
          NR    1            
          CN    2.42         
           D     .87         


**** 03/21/21 19:27:33 *********** Evaluation PSpice (Nov 1999) **************

 * F:\Study\2nd year\Analog electronic circuit\New folder\lowpass.sch


 ****     SMALL SIGNAL BIAS SOLUTION       TEMPERATURE =   27.000 DEG C


******************************************************************************



 NODE   VOLTAGE     NODE   VOLTAGE     NODE   VOLTAGE     NODE   VOLTAGE


(X_U1.6) 502.2E-09 (X_U1.7)    -.0051 (X_U1.8)    -.0051 (X_U1.9)    0.0000     

($N_0001)    -.0050                   ($N_0002)    -.0025                       

($N_0003)    -.0025                   ($N_0004)   12.0000                       

($N_0005)  -12.0000                   ($N_0008)    -.0013                       

($N_0009)    0.0000                   (X_U1.10)    -.6102                       

(X_U1.11)   11.9600                   (X_U1.12)   11.9600                       

(X_U1.13)    -.5963                   (X_U1.14)    -.5963                       

(X_U1.53)   11.0000                   (X_U1.54)  -11.0000                       

(X_U1.90)    -.0024                   (X_U1.91)   40.0000                       

(X_U1.92)  -40.0000                   (X_U1.99)    0.0000                   




    VOLTAGE SOURCE CURRENTS
    NAME         CURRENT

    V_V2        -1.337E-03
    V_V3        -1.337E-03
    V_V4        -7.972E-08
    X_U1.vb      5.022E-12
    X_U1.vc      1.100E-11
    X_U1.ve      1.100E-11
    X_U1.vlim   -2.436E-06
    X_U1.vlp    -4.000E-11
    X_U1.vln    -4.000E-11

    TOTAL POWER DISSIPATION   3.21E-02  WATTS



          JOB CONCLUDED

          TOTAL JOB TIME             .02
