
**** 11/11/20 23:56:37 *********** Evaluation PSpice (Nov 1999) **************

 * F:\Study\2nd year\Analog electronic circuit\lab\lab3\wbf2.sch


 ****     CIRCUIT DESCRIPTION


******************************************************************************




* Schematics Version 9.1 - Web Update 1
* Wed Nov 11 23:56:33 2020



** Analysis setup **
.ac LIN 101 1k 10000k


* From [PSPICE NETLIST] section of pspiceev.ini:
.lib "nom.lib"

.INC "wbf2.net"

**** INCLUDING wbf2.net ****
* Schematics Netlist *



X_U2         $N_0001 $N_0002 $N_0003 $N_0004 $N_0005 uA741
R_R5         0 $N_0008  10k  
R_R7         0 $N_0002  10k  
V_V4         $N_0003 0 12
V_V5         0 $N_0004 12
V_V2         $N_0009 0 12
V_V3         0 $N_0010 12
R_R2         $N_0011 $N_0001  15.9k  
R_R4         $N_0012 0  15.9k  
C_C1         $N_0011 $N_0005  10p  
C_C2         $N_0001 0  10p  
R_R8         $N_0002 $N_0005  10k  
C_C4         $N_0013 3_7n  6.3n  
C_C3         3_7n $N_0012  1n  
R_R3         3_7n $N_0014  15.9k  
R_R10         0 $N_0011  157k  
R_R6         $N_0008 $N_0014  30k  
X_U1         $N_0012 $N_0008 $N_0009 $N_0010 $N_0014 uA741
R_R1         $N_0014 $N_0011  17.69k  
C_C6         0 3_7n  3.7n  
V_V1         0 $N_0013 DC 0V AC 1 

**** RESUMING wbf2.cir ****
.INC "wbf2.als"



**** INCLUDING wbf2.als ****
* Schematics Aliases *

.ALIASES
X_U2            U2(+=$N_0001 -=$N_0002 V+=$N_0003 V-=$N_0004 OUT=$N_0005 )
R_R5            R5(1=0 2=$N_0008 )
R_R7            R7(1=0 2=$N_0002 )
V_V4            V4(+=$N_0003 -=0 )
V_V5            V5(+=0 -=$N_0004 )
V_V2            V2(+=$N_0009 -=0 )
V_V3            V3(+=0 -=$N_0010 )
R_R2            R2(1=$N_0011 2=$N_0001 )
R_R4            R4(1=$N_0012 2=0 )
C_C1            C1(1=$N_0011 2=$N_0005 )
C_C2            C2(1=$N_0001 2=0 )
R_R8            R8(1=$N_0002 2=$N_0005 )
C_C4            C4(1=$N_0013 2=3_7n )
C_C3            C3(1=3_7n 2=$N_0012 )
R_R3            R3(1=3_7n 2=$N_0014 )
R_R10           R10(1=0 2=$N_0011 )
R_R6            R6(1=$N_0008 2=$N_0014 )
X_U1            U1(+=$N_0012 -=$N_0008 V+=$N_0009 V-=$N_0010 OUT=$N_0014 )
R_R1            R1(1=$N_0014 2=$N_0011 )
C_C6            C6(1=0 2=3_7n )
V_V1            V1(+=0 -=$N_0013 )
_    _(3.7n=3_7n)
.ENDALIASES


**** RESUMING wbf2.cir ****
.probe


.END

**** 11/11/20 23:56:37 *********** Evaluation PSpice (Nov 1999) **************

 * F:\Study\2nd year\Analog electronic circuit\lab\lab3\wbf2.sch


 ****     Diode MODEL PARAMETERS


******************************************************************************




               X_U2.dx         X_U1.dx         
          IS  800.000000E-18  800.000000E-18 
          RS    1               1            


**** 11/11/20 23:56:37 *********** Evaluation PSpice (Nov 1999) **************

 * F:\Study\2nd year\Analog electronic circuit\lab\lab3\wbf2.sch


 ****     BJT MODEL PARAMETERS


******************************************************************************




               X_U2.qx         X_U1.qx         
               NPN             NPN             
          IS  800.000000E-18  800.000000E-18 
          BF   93.75           93.75         
          NF    1               1            
          BR    1               1            
          NR    1               1            
          CN    2.42            2.42         
           D     .87             .87         


**** 11/11/20 23:56:37 *********** Evaluation PSpice (Nov 1999) **************

 * F:\Study\2nd year\Analog electronic circuit\lab\lab3\wbf2.sch


 ****     SMALL SIGNAL BIAS SOLUTION       TEMPERATURE =   27.000 DEG C


******************************************************************************



 NODE   VOLTAGE     NODE   VOLTAGE     NODE   VOLTAGE     NODE   VOLTAGE


( 3_7n)    -.0026  (X_U1.6) 245.3E-09 (X_U1.7)    -.0026 (X_U1.8)    -.0026     

(X_U1.9)    0.0000 (X_U2.6) 846.8E-09 (X_U2.7)    -.0089 (X_U2.8)    -.0089     

(X_U2.9)    0.0000 ($N_0001)    -.0049                   ($N_0002)    -.0049    

($N_0003)   12.0000                   ($N_0004)  -12.0000                       

($N_0005)    -.0089                   ($N_0008)    -.0012                       

($N_0009)   12.0000                   ($N_0010)  -12.0000                       

($N_0011)    -.0036                   ($N_0012)    -.0013                       

($N_0013)    0.0000                   ($N_0014)    -.0026                       

(X_U1.10)    -.6089                   (X_U1.11)   11.9600                       

(X_U1.12)   11.9600                   (X_U1.13)    -.5951                       

(X_U1.14)    -.5951                   (X_U1.53)   11.0000                       

(X_U1.54)  -11.0000                   (X_U1.90) 11.70E-06                       

(X_U1.91)   40.0000                   (X_U1.92)  -40.0000                       

(X_U1.99)    0.0000                   (X_U2.10)    -.6125                       

(X_U2.11)   11.9600                   (X_U2.12)   11.9600                       

(X_U2.13)    -.5987                   (X_U2.14)    -.5987                       

(X_U2.53)   11.0000                   (X_U2.54)  -11.0000                       

(X_U2.90)-404.6E-06                   (X_U2.91)   40.0000                       

(X_U2.92)  -40.0000                   (X_U2.99)    0.0000                   




    VOLTAGE SOURCE CURRENTS
    NAME         CURRENT

    V_V4        -1.337E-03
    V_V5        -1.337E-03
    V_V2        -1.337E-03
    V_V3        -1.337E-03
    V_V1         0.000E+00
    X_U2.vb      8.468E-12
    X_U2.vc      1.101E-11
    X_U2.ve      1.099E-11
    X_U2.vlim   -4.046E-07
    X_U2.vlp    -4.000E-11
    X_U2.vln    -4.000E-11
    X_U1.vb      2.453E-12
    X_U1.vc      1.100E-11
    X_U1.ve      1.100E-11
    X_U1.vlim    1.170E-08
    X_U1.vlp    -4.000E-11
    X_U1.vln    -4.000E-11

    TOTAL POWER DISSIPATION   6.42E-02  WATTS



          JOB CONCLUDED

          TOTAL JOB TIME             .03
