
**** 03/21/21 19:14:01 *********** Evaluation PSpice (Nov 1999) **************

 * F:\Study\2nd year\Analog electronic circuit\lab\wein2.sch


 ****     CIRCUIT DESCRIPTION


******************************************************************************




* Schematics Version 9.1 - Web Update 1
* Sun Mar 21 19:13:57 2021



** Analysis setup **
.tran 1ns 5ms


* From [PSPICE NETLIST] section of pspiceev.ini:
.lib "nom.lib"

.INC "wein2.net"

**** INCLUDING wein2.net ****
* Schematics Netlist *



C_C2         $N_0001 $N_0002  0.01u  
R_R1         $N_0002 $N_0003  15.9k  
R_R2         $N_0003 0  2.5k  
X_U1         $N_0001 $N_0004 $N_0005 $N_0006 $N_0003 uA741
R_R4         0 $N_0004  10k  
V_V1         $N_0005 0 12v
V_V2         0 $N_0006 12k
C_C1         0 $N_0001  0.01u  
R_R5         0 $N_0001  15.9k  
R_R3         $N_0004 $N_0003  20k  

**** RESUMING wein2.cir ****
.INC "wein2.als"



**** INCLUDING wein2.als ****
* Schematics Aliases *

.ALIASES
C_C2            C2(1=$N_0001 2=$N_0002 )
R_R1            R1(1=$N_0002 2=$N_0003 )
R_R2            R2(1=$N_0003 2=0 )
X_U1            U1(+=$N_0001 -=$N_0004 V+=$N_0005 V-=$N_0006 OUT=$N_0003 )
R_R4            R4(1=0 2=$N_0004 )
V_V1            V1(+=$N_0005 -=0 )
V_V2            V2(+=0 -=$N_0006 )
C_C1            C1(1=0 2=$N_0001 )
R_R5            R5(1=0 2=$N_0001 )
R_R3            R3(1=$N_0004 2=$N_0003 )
.ENDALIASES


**** RESUMING wein2.cir ****
.probe


.END

**** 03/21/21 19:14:01 *********** Evaluation PSpice (Nov 1999) **************

 * F:\Study\2nd year\Analog electronic circuit\lab\wein2.sch


 ****     Diode MODEL PARAMETERS


******************************************************************************




               X_U1.dx         
          IS  800.000000E-18 
          RS    1            


**** 03/21/21 19:14:01 *********** Evaluation PSpice (Nov 1999) **************

 * F:\Study\2nd year\Analog electronic circuit\lab\wein2.sch


 ****     BJT MODEL PARAMETERS


******************************************************************************




               X_U1.qx         
               NPN             
          IS  800.000000E-18 
          BF   93.75         
          NF    1            
          BR    1            
          NR    1            
          CN    2.42         
           D     .87         


**** 03/21/21 19:14:01 *********** Evaluation PSpice (Nov 1999) **************

 * F:\Study\2nd year\Analog electronic circuit\lab\wein2.sch


 ****     INITIAL TRANSIENT SOLUTION       TEMPERATURE =   27.000 DEG C


******************************************************************************



 NODE   VOLTAGE     NODE   VOLTAGE     NODE   VOLTAGE     NODE   VOLTAGE


(X_U1.6)    -.5660 (X_U1.7)    -.3349 (X_U1.8)    -.3349 (X_U1.9)    0.0000     

($N_0001)    -.0429                   ($N_0002)    -.3278                       

($N_0003)    -.3278                   ($N_0004)    -.1243                       

($N_0005)   12.0000                   ($N_0006)-12.00E+03                       

(X_U1.10)   -1.1972                   (X_U1.11)   10.8780                       

(X_U1.12)   10.6580                   (X_U1.13)    -.8046                       

(X_U1.14)    -.7278                   (X_U1.53)   11.0000                       

(X_U1.54)-12.00E+03                   (X_U1.90)    -.1271                       

(X_U1.91)   40.0000                   (X_U1.92)  -40.0000                       

(X_U1.99)-5994.0000                   




    VOLTAGE SOURCE CURRENTS
    NAME         CURRENT

    V_V1        -6.619E-01
    V_V2        -6.615E-01
    X_U1.vb     -5.660E-06
    X_U1.vc      1.133E-11
    X_U1.ve      1.200E-08
    X_U1.vlim   -1.271E-04
    X_U1.vlp    -4.013E-11
    X_U1.vln    -3.988E-11

    TOTAL POWER DISSIPATION   7.95E+03  WATTS



          JOB CONCLUDED

          TOTAL JOB TIME             .02
