
**** 11/02/20 14:11:41 *********** Evaluation PSpice (Nov 1999) **************

 * F:\Study\2nd year\Analog electronic circuit\lab\l2\oo\Schematic27.sch


 ****     CIRCUIT DESCRIPTION


******************************************************************************




* Schematics Version 9.1 - Web Update 1
* Mon Nov 02 14:11:37 2020



** Analysis setup **
.tran 0ns 20ms


* From [PSPICE NETLIST] section of pspiceev.ini:
.lib "nom.lib"

.INC "Schematic27.net"

**** INCLUDING Schematic27.net ****
* Schematics Netlist *



X_U1         $N_0001 0 $N_0002 $N_0003 $N_0004 uA741
X_U2         0 $N_0007 $N_0008 $N_0009 $N_0010 uA741
V_V2         0 $N_0003 12
V_V1         $N_0002 0 12
V_V3         $N_0008 0 12
V_V4         0 $N_0009 12
C_C1         $N_0007 $N_0010  0.1uF  
R_R1         $N_0010 $N_0001  10k  
R_R2         $N_0001 $N_0004  17.5k  
R_R3         $N_0004 $N_0007  3.57k  

**** RESUMING Schematic27.cir ****
.INC "Schematic27.als"



**** INCLUDING Schematic27.als ****
* Schematics Aliases *

.ALIASES
X_U1            U1(+=$N_0001 -=0 V+=$N_0002 V-=$N_0003 OUT=$N_0004 )
X_U2            U2(+=0 -=$N_0007 V+=$N_0008 V-=$N_0009 OUT=$N_0010 )
V_V2            V2(+=0 -=$N_0003 )
V_V1            V1(+=$N_0002 -=0 )
V_V3            V3(+=$N_0008 -=0 )
V_V4            V4(+=0 -=$N_0009 )
C_C1            C1(1=$N_0007 2=$N_0010 )
R_R1            R1(1=$N_0010 2=$N_0001 )
R_R2            R2(1=$N_0001 2=$N_0004 )
R_R3            R3(1=$N_0004 2=$N_0007 )
.ENDALIASES


**** RESUMING Schematic27.cir ****
.probe


.END

**** 11/02/20 14:11:41 *********** Evaluation PSpice (Nov 1999) **************

 * F:\Study\2nd year\Analog electronic circuit\lab\l2\oo\Schematic27.sch


 ****     Diode MODEL PARAMETERS


******************************************************************************




               X_U1.dx         X_U2.dx         
          IS  800.000000E-18  800.000000E-18 
          RS    1               1            


**** 11/02/20 14:11:41 *********** Evaluation PSpice (Nov 1999) **************

 * F:\Study\2nd year\Analog electronic circuit\lab\l2\oo\Schematic27.sch


 ****     BJT MODEL PARAMETERS


******************************************************************************




               X_U1.qx         X_U2.qx         
               NPN             NPN             
          IS  800.000000E-18  800.000000E-18 
          BF   93.75           93.75         
          NF    1               1            
          BR    1               1            
          NR    1               1            
          CN    2.42            2.42         
           D     .87             .87         


**** 11/02/20 14:11:41 *********** Evaluation PSpice (Nov 1999) **************

 * F:\Study\2nd year\Analog electronic circuit\lab\l2\oo\Schematic27.sch


 ****     INITIAL TRANSIENT SOLUTION       TEMPERATURE =   27.000 DEG C


******************************************************************************



 NODE   VOLTAGE     NODE   VOLTAGE     NODE   VOLTAGE     NODE   VOLTAGE


(X_U1.6)-30.40E-09 (X_U1.7) 308.9E-06 (X_U1.8) 308.9E-06 (X_U1.9)    0.0000     

(X_U2.6)-57.19E-09 (X_U2.7) 596.4E-06 (X_U2.8) 596.4E-06 (X_U2.9)    0.0000     

($N_0001)-19.25E-06                   ($N_0002)   12.0000                       

($N_0003)  -12.0000                   ($N_0004) 304.0E-06                       

($N_0007) 19.25E-06                   ($N_0008)   12.0000                       

($N_0009)  -12.0000                   ($N_0010) 593.3E-06                       

(X_U1.10)    -.6077                   (X_U1.11)   11.9600                       

(X_U1.12)   11.9600                   (X_U1.13)    -.5938                       

(X_U1.14)    -.5938                   (X_U1.53)   11.0000                       

(X_U1.54)  -11.0000                   (X_U1.90) 109.3E-06                       

(X_U1.91)   40.0000                   (X_U1.92)  -40.0000                       

(X_U1.99)    0.0000                   (X_U2.10)    -.6077                       

(X_U2.11)   11.9600                   (X_U2.12)   11.9600                       

(X_U2.13)    -.5938                   (X_U2.14)    -.5938                       

(X_U2.53)   11.0000                   (X_U2.54)  -11.0000                       

(X_U2.90) 67.65E-06                   (X_U2.91)   40.0000                       

(X_U2.92)  -40.0000                   (X_U2.99)    0.0000                   




    VOLTAGE SOURCE CURRENTS
    NAME         CURRENT

    V_V2        -1.337E-03
    V_V1        -1.337E-03
    V_V3        -1.337E-03
    V_V4        -1.337E-03
    X_U1.vb     -3.040E-13
    X_U1.vc      1.100E-11
    X_U1.ve      1.100E-11
    X_U1.vlim    1.093E-07
    X_U1.vlp    -4.000E-11
    X_U1.vln    -4.000E-11
    X_U2.vb     -5.719E-13
    X_U2.vc      1.100E-11
    X_U2.ve      1.100E-11
    X_U2.vlim    6.765E-08
    X_U2.vlp    -4.000E-11
    X_U2.vln    -4.000E-11

    TOTAL POWER DISSIPATION   6.42E-02  WATTS



          JOB CONCLUDED

          TOTAL JOB TIME             .19
