
**** 11/02/20 19:46:01 *********** Evaluation PSpice (Nov 1999) **************

 * F:\Study\2nd year\Analog electronic circuit\lab\l2\oo\Schematic2.sch


 ****     CIRCUIT DESCRIPTION


******************************************************************************




* Schematics Version 9.1 - Web Update 1
* Mon Nov 02 19:41:59 2020



** Analysis setup **
.tran 0ns 20ms


* From [PSPICE NETLIST] section of pspiceev.ini:
.lib "nom.lib"

.INC "Schematic2.net"

**** INCLUDING Schematic2.net ****
* Schematics Netlist *



X_U1         $N_0001 $N_0002 $N_0003 $N_0004 $N_0005 uA741
V_V3         0 $N_0004 12
V_V2         $N_0003 0 12
R_R1         $N_0008 $N_0001  10k  
V_V1         $N_0002 0 DC 0 AC 0
+SIN 0 12 100 0 0 0
R_R3         $N_0001 $N_0005  3.3k  
V_V4         $N_0008 0 -1.334

**** RESUMING Schematic2.cir ****
.INC "Schematic2.als"



**** INCLUDING Schematic2.als ****
* Schematics Aliases *

.ALIASES
X_U1            U1(+=$N_0001 -=$N_0002 V+=$N_0003 V-=$N_0004 OUT=$N_0005 )
V_V3            V3(+=0 -=$N_0004 )
V_V2            V2(+=$N_0003 -=0 )
R_R1            R1(1=$N_0008 2=$N_0001 )
V_V1            V1(+=$N_0002 -=0 )
R_R3            R3(1=$N_0001 2=$N_0005 )
V_V4            V4(+=$N_0008 -=0 )
.ENDALIASES


**** RESUMING Schematic2.cir ****
.probe


.END

**** 11/02/20 19:46:01 *********** Evaluation PSpice (Nov 1999) **************

 * F:\Study\2nd year\Analog electronic circuit\lab\l2\oo\Schematic2.sch


 ****     Diode MODEL PARAMETERS


******************************************************************************




               X_U1.dx         
          IS  800.000000E-18 
          RS    1            


**** 11/02/20 19:46:01 *********** Evaluation PSpice (Nov 1999) **************

 * F:\Study\2nd year\Analog electronic circuit\lab\l2\oo\Schematic2.sch


 ****     BJT MODEL PARAMETERS


******************************************************************************




               X_U1.qx         
               NPN             
          IS  800.000000E-18 
          BF   93.75         
          NF    1            
          BR    1            
          NR    1            
          CN    2.42         
           D     .87         


**** 11/02/20 19:46:01 *********** Evaluation PSpice (Nov 1999) **************

 * F:\Study\2nd year\Analog electronic circuit\lab\l2\oo\Schematic2.sch


 ****     INITIAL TRANSIENT SOLUTION       TEMPERATURE =   27.000 DEG C


******************************************************************************



 NODE   VOLTAGE     NODE   VOLTAGE     NODE   VOLTAGE     NODE   VOLTAGE


(X_U1.6)-43.51E-06 (X_U1.7)     .4472 (X_U1.8)     .4472 (X_U1.9)    0.0000     

($N_0001)-16.94E-06                   ($N_0002)    0.0000                       

($N_0003)   12.0000                   ($N_0004)  -12.0000                       

($N_0005)     .4405                   ($N_0008)   -1.3340                       

(X_U1.10)    -.6077                   (X_U1.11)   11.9600                       

(X_U1.12)   11.9600                   (X_U1.13)    -.5938                       

(X_U1.14)    -.5938                   (X_U1.53)   11.0000                       

(X_U1.54)  -11.0000                   (X_U1.90)     .1339                       

(X_U1.91)   40.0000                   (X_U1.92)  -40.0000                       

(X_U1.99)    0.0000                   




    VOLTAGE SOURCE CURRENTS
    NAME         CURRENT

    V_V3        -1.337E-03
    V_V2        -1.337E-03
    V_V1        -7.976E-08
    V_V4         1.334E-04
    X_U1.vb     -4.351E-10
    X_U1.vc      1.056E-11
    X_U1.ve      1.144E-11
    X_U1.vlim    1.339E-04
    X_U1.vlp    -3.987E-11
    X_U1.vln    -4.014E-11

    TOTAL POWER DISSIPATION   3.23E-02  WATTS



          JOB CONCLUDED

          TOTAL JOB TIME             .03
