
**** 11/02/20 14:36:15 *********** Evaluation PSpice (Nov 1999) **************

 * F:\Study\2nd year\Analog electronic circuit\lab\l2\SquareWave1.sch


 ****     CIRCUIT DESCRIPTION


******************************************************************************




* Schematics Version 9.1 - Web Update 1
* Mon Nov 02 14:36:06 2020



** Analysis setup **
.tran 0ns 5ms


* From [PSPICE NETLIST] section of pspiceev.ini:
.lib "nom.lib"

.INC "SquareWave1.net"

**** INCLUDING SquareWave1.net ****
* Schematics Netlist *



X_U1         $N_0001 $N_0002 $N_0003 $N_0004 $N_0005 uA741
V_V3         $N_0008 0  
+PULSE 0 2 0 1ns 1ns 0.1us 
V_V1         $N_0003 0 12
V_V2         0 $N_0004 12
R_R11         $N_0005 $N_0001  11.64k  
R_R13         $N_0005 0  10k  
R_R14         $N_0005 $N_0002  12.5k  
R_R12         $N_0001 $N_0008  10k  
C_C1         0 $N_0002  0.01uF  

**** RESUMING SquareWave1.cir ****
.INC "SquareWave1.als"



**** INCLUDING SquareWave1.als ****
* Schematics Aliases *

.ALIASES
X_U1            U1(+=$N_0001 -=$N_0002 V+=$N_0003 V-=$N_0004 OUT=$N_0005 )
V_V3            V3(+=$N_0008 -=0 )
V_V1            V1(+=$N_0003 -=0 )
V_V2            V2(+=0 -=$N_0004 )
R_R11           R11(1=$N_0005 2=$N_0001 )
R_R13           R13(1=$N_0005 2=0 )
R_R14           R14(1=$N_0005 2=$N_0002 )
R_R12           R12(1=$N_0001 2=$N_0008 )
C_C1            C1(1=0 2=$N_0002 )
.ENDALIASES


**** RESUMING SquareWave1.cir ****
.probe


.END

**** 11/02/20 14:36:15 *********** Evaluation PSpice (Nov 1999) **************

 * F:\Study\2nd year\Analog electronic circuit\lab\l2\SquareWave1.sch


 ****     Diode MODEL PARAMETERS


******************************************************************************




               X_U1.dx         
          IS  800.000000E-18 
          RS    1            


**** 11/02/20 14:36:15 *********** Evaluation PSpice (Nov 1999) **************

 * F:\Study\2nd year\Analog electronic circuit\lab\l2\SquareWave1.sch


 ****     BJT MODEL PARAMETERS


******************************************************************************




               X_U1.qx         
               NPN             
          IS  800.000000E-18 
          BF   93.75         
          NF    1            
          BR    1            
          NR    1            
          CN    2.42         
           D     .87         


**** 11/02/20 14:36:15 *********** Evaluation PSpice (Nov 1999) **************

 * F:\Study\2nd year\Analog electronic circuit\lab\l2\SquareWave1.sch


 ****     INITIAL TRANSIENT SOLUTION       TEMPERATURE =   27.000 DEG C


******************************************************************************



 NODE   VOLTAGE     NODE   VOLTAGE     NODE   VOLTAGE     NODE   VOLTAGE


(X_U1.6)-107.4E-09 (X_U1.7)     .0011 (X_U1.8)     .0011 (X_U1.9)    0.0000     

($N_0001) 75.85E-06                   ($N_0002) 95.09E-06                       

($N_0003)   12.0000                   ($N_0004)  -12.0000                       

($N_0005)     .0011                   ($N_0008)    0.0000                       

(X_U1.10)    -.6076                   (X_U1.11)   11.9600                       

(X_U1.12)   11.9600                   (X_U1.13)    -.5937                       

(X_U1.14)    -.5937                   (X_U1.53)   11.0000                       

(X_U1.54)  -11.0000                   (X_U1.90) 276.3E-06                       

(X_U1.91)   40.0000                   (X_U1.92)  -40.0000                       

(X_U1.99)    0.0000                   




    VOLTAGE SOURCE CURRENTS
    NAME         CURRENT

    V_V3         7.585E-09
    V_V1        -1.337E-03
    V_V2        -1.337E-03
    X_U1.vb     -1.074E-12
    X_U1.vc      1.100E-11
    X_U1.ve      1.100E-11
    X_U1.vlim    2.763E-07
    X_U1.vlp    -4.000E-11
    X_U1.vln    -4.000E-11

    TOTAL POWER DISSIPATION   3.21E-02  WATTS



          JOB CONCLUDED

          TOTAL JOB TIME             .08
